(1659169701.507935) can0 09FD0200#FF8101B877FAFFFF
(1659169701.508638) can0 1DEFFF00#200EE59805050202
(1659169701.509309) can0 1DEFFF00#21FF8201A175FAFF
(1659169701.509965) can0 1DEFFF00#22FFFFFFFFFFFFFF
(1659169701.510640) can0 09FD0200#FF8301C477FCFFFF
(1659169701.511307) can0 09F11200#FFFFFFFF7FFFFFFD
(1659169701.528818) can0 09F50300#FF0000FFFF00FFFF
(1659169701.543430) can0 11F80E02#001B01A8CCA90E08
(1659169701.544005) can0 11F80E02#0113E6048000CC21
(1659169701.544571) can0 11F80E02#02F1148B000032C0
(1659169701.545134) can0 11F80E02#0302C5220000C0FF
(1659169701.545941) can0 0DF11923#FFFF7FFFFEBC07FF
(1659169701.551971) can0 15FD0823#FF0000E171FFFFFF
(1659169701.607906) can0 09FD0200#FF8101AD77FAFFFF
(1659169701.608625) can0 1DEFFF00#400EE59805050202
(1659169701.609283) can0 1DEFFF00#41FF8201A175FAFF
(1659169701.609956) can0 1DEFFF00#42FFFFFFFFFFFFFF
(1659169701.610634) can0 09FD0200#FF8301B977FCFFFF
(1659169701.611264) can0 09F11200#FFFFFFFF7FFFFFFD
(1659169701.645860) can0 0DF11923#FFFF7FFFFEBC07FF
(1659169701.647874) can0 09F50323#FF0000FFFF00FFFF
(1659169701.651870) can0 15FD0823#FF0000E171FFFFFF
(1659169701.662827) can0 1DEFFF00#6011E598E7080A0A
(1659169701.663466) can0 1DEFFF00#610301030DDBA6D2
(1659169701.664114) can0 1DEFFF00#62CA021100FFFFFF
(1659169701.703239) can0 11F80E02#201B013FD20D0D58
(1659169701.703799) can0 11F80E02#219BE604C072CC21
(1659169701.704363) can0 11F80E02#225987CC00002C83
(1659169701.704934) can0 11F80E02#230844390000C7FF
(1659169701.707855) can0 15FD0800#FF0000FFFFFFFFFF
(1659169701.708525) can0 15FD0C00#FF0000FFFFFFFFFF
(1659169701.709189) can0 15FD0A00#FF0000FFFFFF7FFF
(1659169701.709859) can0 0DF50B00#FFFFFFFFFF0000FF
(1659169701.710585) can0 15FD0600#FFFFFFFFFFFFFFFF
(1659169701.711249) can0 15FD0700#FF40FFFFFF7FFFFF
(1659169701.711917) can0 09FD0200#FF8101A377FAFFFF
(1659169701.712599) can0 1DEFFF00#800EE59805050202
(1659169701.713294) can0 1DEFFF00#81FF8201A175FAFF
(1659169701.713919) can0 1DEFFF00#82FFFFFFFFFFFFFF
(1659169701.714598) can0 09FD0200#FF8301AF77FCFFFF
(1659169701.715268) can0 09F11200#FFFFFFFF7FFFFFFD
(1659169701.745857) can0 0DF11923#FFFF7FFFFEBE07FF
(1659169701.751851) can0 15FD0823#FF0000E171FFFFFF
(1659169701.807882) can0 09FD0200#FF81019477FAFFFF
(1659169701.808608) can0 1DEFFF00#A00EE59805050202
(1659169701.809272) can0 1DEFFF00#A1FF8001CA74FAFF
(1659169701.809922) can0 1DEFFF00#A2FFFFFFFFFFFFFF
(1659169701.810604) can0 09FD0200#FF8301A477FCFFFF
(1659169701.811260) can0 09F11200#FFFFFFFF7FFFFFFD
(1659169701.845858) can0 0DF11923#FFFF7FFFFEBF07FF
(1659169701.847865) can0 09F50323#FF0000FFFF00FFFF
(1659169701.851855) can0 15FD0823#FF0000E171FFFFFF
(1659169701.861776) can0 09F50300#FF0000FFFF00FFFF
(1659169701.907954) can0 09FD0200#FF81018677FAFFFF
(1659169701.908668) can0 1DEFFF00#C00EE59805050202
(1659169701.909316) can0 1DEFFF00#C1FF8001CA74FAFF
(1659169701.909991) can0 1DEFFF00#C2FFFFFFFFFFFFFF
(1659169701.910664) can0 09FD0200#FF83019677FCFFFF
(1659169701.911319) can0 09F11200#FFFFFFFF7FFFFFFD
(1659169701.945843) can0 0DF11923#FFFF7FFEFEBF07FF
(1659169701.951845) can0 15FD0823#FF0000E171FFFFFF
(1659169702.007893) can0 09FD0200#FF81017877FAFFFF
(1659169702.008621) can0 1DEFFF00#E00EE59805050202
(1659169702.010106) can0 1DEFFF00#E1FF8001CA74FAFF
(1659169702.010383) can0 1DEFFF00#E2FFFFFFFFFFFFFF
(1659169702.010645) can0 09FD0200#FF83018877FCFFFF
(1659169702.011281) can0 09F11200#FFFFFFFF7FFFFFFD
(1659169702.045846) can0 0DF11923#FFFF7FFEFEBF07FF
(1659169702.047864) can0 09F50323#FF0000FFFF00FFFF
(1659169702.051871) can0 15FD0823#FF0000E171FFFFFF
(1659169702.107902) can0 09FD0200#FF81016A77FAFFFF
(1659169702.108630) can0 1DEFFF00#000EE59805050202
(1659169702.109296) can0 1DEFFF00#01FF8001CA74FAFF
(1659169702.109966) can0 1DEFFF00#02FFFFFFFFFFFFFF
(1659169702.110631) can0 09FD0200#FF83017B77FCFFFF
(1659169702.111290) can0 09F11200#FFFFFFFF7FFFFFFD
(1659169702.145855) can0 0DF11923#FFFF7FFFFEBF07FF
(1659169702.151833) can0 15FD0823#FF0000E171FFFFFF
(1659169702.194822) can0 09F50300#FF0000FFFF00FFFF
(1659169702.207822) can0 15FD0600#FFFFFFFFFFFFFFFF
(1659169702.208519) can0 15FD0700#FF40FFFFFF7FFFFF
(1659169702.209256) can0 09FD0200#FF81015A77FAFFFF
(1659169702.209907) can0 1DEFFF00#200EE59805050202
(1659169702.210560) can0 1DEFFF00#21FF7A015174FAFF
(1659169702.211225) can0 1DEFFF00#22FFFFFFFFFFFFFF
(1659169702.211896) can0 09FD0200#FF83016B77FCFFFF
(1659169702.212559) can0 09F11200#FFFFFFFF7FFFFFFD
(1659169702.245864) can0 0DF11923#FFFF7FFFFEBF07FF
(1659169702.247866) can0 09F50323#FF0000FFFF00FFFF
(1659169702.251834) can0 15FD0823#FF0000E171FFFFFF
(1659169702.263330) can0 11F80E02#401B01F0BB1E0D30
(1659169702.263895) can0 11F80E02#41BEE6044035CC21
(1659169702.264456) can0 11F80E02#42F2AAE1000044C0
(1659169702.265007) can0 11F80E02#430296380000C0FF
(1659169702.307987) can0 09FD0200#FF81014B77FAFFFF
(1659169702.308690) can0 1DEFFF00#400EE59805050202
(1659169702.309361) can0 1DEFFF00#41FF7A015174FAFF
(1659169702.310021) can0 1DEFFF00#42FFFFFFFFFFFFFF
(1659169702.310676) can0 09FD0200#FF83015C77FCFFFF
(1659169702.311339) can0 09F11200#FFFFFFFF7FFFFFFD
(1659169702.345921) can0 0DF11923#FFFF7FFFFEC007FF
(1659169702.348903) can0 0DF50B23#FF06010000900102
(1659169702.351908) can0 15FD0823#FF0000E171FFFFFF
(1659169702.396698) can0 11F80E02#601B012830180DA0
(1659169702.397290) can0 11F80E02#61FFE5048056CB21
(1659169702.397802) can0 11F80E02#62F01ED800004683
(1659169702.398431) can0 11F80E02#630AE6730000C7FF
(1659169702.407911) can0 09FD0200#FF81013B77FAFFFF
(1659169702.408627) can0 1DEFFF00#600EE59805050202
(1659169702.409290) can0 1DEFFF00#61FF7A015174FAFF
(1659169702.409945) can0 1DEFFF00#62FFFFFFFFFFFFFF
(1659169702.410616) can0 09FD0200#FF83014D77FCFFFF
(1659169702.411268) can0 09F11200#FFFFFFFF7FFFFFFD
(1659169702.423324) can0 19FA0302#2AD24A007E00FF7F
(1659169702.423838) can0 09F80102#C0B4CC21F882E604
(1659169702.424433) can0 09F80202#2AFC00000000FFFF
(1659169702.425019) can0 0DF80502#00332A034B603C2E
(1659169702.425562) can0 0DF80502#011200801F82789D
(1659169702.426140) can0 0DF80502#02DE0700B087D4B7
(1659169702.426680) can0 0DF80502#03162401403B9602
(1659169702.427269) can0 0DF80502#040000000013FD0D
(1659169702.427829) can0 0DF80502#054A009300FFFFFF
(1659169702.428422) can0 0DF80502#067FFFFFFFFFFFFF
(1659169702.429005) can0 0DF80502#07FFFFFFFFFFFFFF
(1659169702.445852) can0 0DF11923#FFFF7FFFFEBF07FF
(1659169702.447858) can0 09F50323#FF0000FFFF00FFFF
(1659169702.450100) can0 11F80E02#801B017894130D28
(1659169702.450610) can0 11F80E02#81A1D90400B2BD21
(1659169702.451143) can0 11F80E02#825C2D2600007050
(1659169702.451704) can0 11F80E02#8308B92F0000C3FF
(1659169702.452285) can0 15FD0823#FF0000E171FFFFFF
(1659169702.476750) can0 11F80F02#401A12F01A9D0CF8
(1659169702.477303) can0 11F80F02#4182E604C0B4CC21
(1659169702.477883) can0 11F80F02#42E0FFFF00000600
(1659169702.478453) can0 11F80F02#4326FFFFFF77FF00
(1659169702.507914) can0 09FD0200#FF81013177FAFFFF
(1659169702.508640) can0 1DEFFF00#800EE59805050202
(1659169702.509302) can0 1DEFFF00#81FF7C012475FAFF
(1659169702.509970) can0 1DEFFF00#82FFFFFFFFFFFFFF
(1659169702.510625) can0 09FD0200#FF82014277FCFFFF
(1659169702.511290) can0 09F11200#FFFFFFFF7FFFFFFD
(1659169702.527842) can0 09F50300#FF0000FFFF00FFFF
(1659169702.530061) can0 11F80E02#A01B014853B10DB8
(1659169702.530580) can0 11F80E02#A167B704C0AE0722
(1659169702.531155) can0 11F80E02#A255209C9C024B03
(1659169702.531744) can0 11F80E02#A301209C0000C0FF
(1659169702.545845) can0 0DF11923#FFFF7FFFFEC107FF
(1659169702.551833) can0 15FD0823#FF0000E171FFFFFF
(1659169702.607923) can0 09FD0200#FF81012677FAFFFF
(1659169702.608642) can0 1DEFFF00#A00EE59805050202
(1659169702.609313) can0 1DEFFF00#A1FF7C012475FAFF
(1659169702.609968) can0 1DEFFF00#A2FFFFFFFFFFFFFF
(1659169702.610630) can0 09FD0200#FF82013877FCFFFF
(1659169702.611295) can0 09F11200#FFFFFFFF7FFFFFFD
(1659169702.645843) can0 0DF11923#FFFF7FFFFEC107FF
(1659169702.647921) can0 09F50323#FF0000FFFF00FFFF
(1659169702.651942) can0 15FD0823#FF0000E171FFFFFF
(1659169702.662885) can0 1DEFFF00#C011E598E7080A0A
(1659169702.663510) can0 1DEFFF00#C10301030DDBA6D2
(1659169702.664070) can0 19FB0202#404B05A36FD40D9A
(1659169702.664631) can0 1DEFFF00#C2CA021100FFFFFF
(1659169702.665196) can0 19FB0202#412B96004D47515A
(1659169702.665745) can0 19FB0202#423200002041414C
(1659169702.666297) can0 19FB0202#43534B455245204B
(1659169702.666872) can0 19FB0202#4433373300000000
(1659169702.667426) can0 19FB0202#4500001E5E016E00
(1659169702.667996) can0 19FB0202#464600FA00163C00
(1659169702.668547) can0 19FB0202#47475A3158025045
(1659169702.669095) can0 19FB0202#4854455248454144
(1659169702.669691) can0 19FB0202#4900000000000000
(1659169702.670280) can0 19FB0202#4A000000008EE100
(1659169702.707814) can0 0DF50B00#FFFFFFFFFF0000FF
(1659169702.708484) can0 15FD0600#FFFFFFFFFFFFFFFF
(1659169702.709148) can0 15FD0700#FF40FFFFFF7FFFFF
(1659169702.709880) can0 09FD0200#FF81011C77FAFFFF
(1659169702.710568) can0 1DEFFF00#E00EE59805050202
(1659169702.711229) can0 1DEFFF00#E1FF7C012475FAFF
(1659169702.711871) can0 1DEFFF00#E2FFFFFFFFFFFFFF
(1659169702.712531) can0 09FD0200#FF82012E77FCFFFF
(1659169702.713204) can0 09F11200#FFFFFFFF7FFFFFFD
(1659169702.745866) can0 0DF11923#FFFF7FFEFEC107FF
(1659169702.751822) can0 15FD0823#FF0000E171FFFFFF
(1659169702.807933) can0 09FD0200#FF81011577FAFFFF
(1659169702.808661) can0 1DEFFF00#000EE59805050202
(1659169702.809317) can0 1DEFFF00#01FF8001C775FAFF
(1659169702.809985) can0 1DEFFF00#02FFFFFFFFFFFFFF
(1659169702.810647) can0 09FD0200#FF82012477FCFFFF
(1659169702.811331) can0 09F11200#FFFFFFFF7FFFFFFD
(1659169702.823284) can0 11F80E02#C01B0160EB1A0DE0
(1659169702.823828) can0 11F80E02#C108E6048043CB21
(1659169702.824391) can0 11F80E02#C25C64D500004EC0
(1659169702.824948) can0 11F80E02#C30089720000C7FF
(1659169702.845818) can0 0DF11923#FFFF7FFEFEC007FF
(1659169702.847862) can0 09F50323#FF0000FFFF00FFFF
(1659169702.851947) can0 15FD0823#FF0000E171FFFFFF
(1659169702.860831) can0 09F50300#FF0000FFFF00FFFF
(1659169702.907948) can0 09FD0200#FF81010E77FAFFFF
(1659169702.908656) can0 1DEFFF00#200EE59805050202
(1659169702.909323) can0 1DEFFF00#21FF8001C775FAFF
(1659169702.910005) can0 1DEFFF00#22FFFFFFFFFFFFFF
(1659169702.910646) can0 09FD0200#FF82011D77FCFFFF
(1659169702.911316) can0 09F11200#FFFFFFFF7FFFFFFD
(1659169702.945818) can0 0DF11923#FFFF7FFEFEBF07FF
(1659169702.951818) can0 15FD0823#FF0000E171FFFFFF
(1659169703.007955) can0 09FD0200#FF81010877FAFFFF
(1659169703.008665) can0 1DEFFF00#400EE59805050202
(1659169703.009335) can0 1DEFFF00#41FF8001C775FAFF
(1659169703.010023) can0 1DEFFF00#42FFFFFFFFFFFFFF
(1659169703.010647) can0 09FD0200#FF82011777FCFFFF
(1659169703.011320) can0 09F11200#FFFFFFFF7FFFFFFD
(1659169703.036578) can0 11F80E02#E01B01E0BDA30EE0
(1659169703.037120) can0 11F80E02#E129E604C00BCC21
(1659169703.037679) can0 11F80E02#E2F0AC69000044C0
(1659169703.038244) can0 11F80E02#E30216220000C7FF
(1659169703.045815) can0 0DF11923#FFFF7FFDFEBF07FF
(1659169703.047861) can0 09F50323#FF0000FFFF00FFFF
(1659169703.051818) can0 15FD0823#FF0000E171FFFFFF
(1659169703.108038) can0 09FD0200#FF81010177FAFFFF
(1659169703.108698) can0 1DEFFF00#600EE59805050202
(1659169703.109471) can0 1DEFFF00#61FF8001C775FAFF
(1659169703.110094) can0 1DEFFF00#62FFFFFFFFFFFFFF
(1659169703.110718) can0 09FD0200#FF82011077FCFFFF
(1659169703.111409) can0 09F11200#FFFFFFFF7FFFFFFD
(1659169703.145904) can0 0DF11923#FFFF7FFDFEBE07FF
(1659169703.151882) can0 15FD0823#FF0000E171FFFFFF
(1659169703.193882) can0 09F50300#FF0000FFFF00FFFF
(1659169703.207973) can0 15FD0600#FFFFFFFFFFFFFFFF
(1659169703.208586) can0 15FD0700#FF40FFFFFF7FFFFF
(1659169703.209309) can0 09FD0200#FF8101F776FAFFFF
(1659169703.209965) can0 1DEFFF00#800EE59805050202
(1659169703.210690) can0 1DEFFF00#81FF80010575FAFF
(1659169703.211305) can0 1DEFFF00#82FFFFFFFFFFFFFF
(1659169703.211997) can0 09FD0200#FF82010677FCFFFF
(1659169703.212644) can0 09F11200#FFFFFFFF7FFFFFFD
(1659169703.245859) can0 0DF11923#FFFF7FFDFEBE07FF
(1659169703.247906) can0 09F50323#FF0000FFFF00FFFF
(1659169703.251867) can0 15FD0823#FF0000E171FFFFFF
(1659169703.277149) can0 11F80E02#001B0104F70D0DC8
(1659169703.277665) can0 11F80E02#015DE60400ECCB21
(1659169703.278249) can0 11F80E02#02F07D9D000029C0
(1659169703.278830) can0 11F80E02#0302FFFFA304C0FF
(1659169703.307948) can0 09FD0200#FF8101ED76FAFFFF
(1659169703.308681) can0 1DEFFF00#A00EE59805050202
(1659169703.309356) can0 1DEFFF00#A1FF80010575FAFF
(1659169703.309987) can0 1DEFFF00#A2FFFFFFFFFFFFFF
(1659169703.310662) can0 09FD0200#FF8201FC76FCFFFF
(1659169703.311314) can0 09F11200#FFFFFFFF7FFFFFFD
(1659169703.345794) can0 0DF11923#FFFF7FFDFEBD07FF
(1659169703.348793) can0 0DF50B23#FF06010000900102
(1659169703.351811) can0 15FD0823#FF0000E171FFFFFF
(1659169703.407958) can0 09FD0200#FF8101E476FAFFFF
(1659169703.408689) can0 1DEFFF00#C00EE59805050202
(1659169703.409353) can0 1DEFFF00#C1FF80010575FAFF
(1659169703.410022) can0 1DEFFF00#C2FFFFFFFFFFFFFF
(1659169703.410731) can0 09FD0200#FF8201F376FCFFFF
(1659169703.411382) can0 09F11200#FFFFFFFF7FFFFFFD
(1659169703.434643) can0 19FA0302#2BD24A007E00FF7F
(1659169703.435184) can0 09F80102#C0B4CC21E082E604
(1659169703.435830) can0 09F80202#2BFC00000000FFFF
(1659169703.436825) can0 0DF80502#20332B034B70632E
(1659169703.437376) can0 0DF80502#211200801F82789D
(1659169703.437940) can0 0DF80502#22DE0700C0043EB2
(1659169703.438513) can0 0DF80502#23162401403B9602
(1659169703.439075) can0 0DF80502#240000000013FD0D
(1659169703.439650) can0 0DF80502#254A009300FFFFFF
(1659169703.440251) can0 0DF80502#267FFFFFFFFFFFFF
(1659169703.440839) can0 0DF80502#27FFFFFFFFFFFFFF
(1659169703.445804) can0 0DF11923#FFFF7FFDFEBC07FF
(1659169703.447848) can0 09F50323#FF0000FFFF00FFFF
(1659169703.451812) can0 15FD0823#FF0000E171FFFFFF
(1659169703.487005) can0 1DEFFF00#E016E59804050404
(1659169703.487663) can0 1DEFFF00#E10000FFFF000000
(1659169703.488334) can0 1DEFFF00#E200000000000000
(1659169703.489004) can0 1DEFFF00#E30000FFFFFFFFFF
(1659169703.490555) can0 11F80F02#601A12F01A9D0CE0
(1659169703.491105) can0 11F80F02#6182E604C0B4CC21
(1659169703.491686) can0 11F80F02#62E4FFFF00000600
(1659169703.492263) can0 11F80F02#6326FFFFFF77FF00
(1659169703.507960) can0 09FD0200#FF8101E176FAFFFF
(1659169703.508675) can0 1DEFFF00#000EE59805050202
(1659169703.509330) can0 1DEFFF00#01FF7A015476FAFF
(1659169703.510011) can0 1DEFFF00#02FFFFFFFFFFFFFF
(1659169703.510685) can0 09FD0200#FF8201F076FCFFFF
(1659169703.511376) can0 09F11200#FFFFFFFF7FFFFFFD
(1659169703.526852) can0 09F50300#FF0000FFFF00FFFF
(1659169703.545797) can0 0DF11923#FFFF7FFCFEBC07FF
(1659169703.551792) can0 15FD0823#FF0000E171FFFFFF
(1659169703.607975) can0 09FD0200#FF8101DE76FAFFFF
(1659169703.608672) can0 1DEFFF00#200EE59805050202
(1659169703.609327) can0 1DEFFF00#21FF7A015476FAFF
(1659169703.610008) can0 1DEFFF00#22FFFFFFFFFFFFFF
(1659169703.610689) can0 09FD0200#FF8201ED76FCFFFF
(1659169703.611381) can0 09F11200#FFFFFFFF7FFFFFFD
(1659169703.645791) can0 0DF11923#FFFF7FFCFEBC07FF
(1659169703.647806) can0 09F50323#FF0000FFFF00FFFF
(1659169703.651808) can0 15FD0823#FF0000E171FFFFFF
(1659169703.662905) can0 1DEFFF00#4011E598E7080A0A
(1659169703.663549) can0 1DEFFF00#410301030DDBA6D2
(1659169703.664202) can0 1DEFFF00#42CA021100FFFFFF
(1659169703.707935) can0 15FD0800#FF0000FFFFFFFFFF
(1659169703.708604) can0 15FD0C00#FF0000FFFFFFFFFF
(1659169703.709274) can0 15FD0A00#FF0000FFFFFF7FFF
(1659169703.709950) can0 0DF50B00#FFFFFFFFFF0000FF
(1659169703.710678) can0 15FD0600#FFFFFFFFFFFFFFFF
(1659169703.711346) can0 15FD0700#FF40FFFFFF7FFFFF
(1659169703.712004) can0 09FD0200#FF8101DB76FAFFFF
(1659169703.712684) can0 1DEFFF00#600EE59805050202
(1659169703.713326) can0 1DEFFF00#61FF7A015476FAFF
(1659169703.713997) can0 1DEFFF00#62FFFFFFFFFFFFFF
(1659169703.714705) can0 09FD0200#FF8201EA76FCFFFF
(1659169703.715349) can0 09F11200#FFFFFFFF7FFFFFFD
(1659169703.729912) can0 11F80E02#201B01E0DC120DD8
(1659169703.730472) can0 11F80E02#2141E604C061CB21
(1659169703.731033) can0 11F80E02#22A4FCD1000040C0
(1659169703.731609) can0 11F80E02#230064E40000C0FF
(1659169703.745787) can0 0DF11923#FFFF7FFCFEBC07FF
(1659169703.751781) can0 15FD0823#FF0000E171FFFFFF
(1659169703.807976) can0 09FD0200#FF8001E676FAFFFF
(1659169703.808701) can0 1DEFFF00#800EE59805050202
(1659169703.809348) can0 1DEFFF00#81FF74010579FAFF
(1659169703.810012) can0 1DEFFF00#82FFFFFFFFFFFFFF
(1659169703.810679) can0 09FD0200#FF8201E776FCFFFF
(1659169703.811373) can0 09F11200#FFFFFFFF7FFFFFFD
(1659169703.845780) can0 0DF11923#FFFF7FFDFEBC07FF
(1659169703.847799) can0 09F50323#FF0000FFFF00FFFF
(1659169703.851783) can0 15FD0823#FF0000E171FFFFFF
(1659169703.859855) can0 09F50300#FF0000FFFF00FFFF
(1659169703.907978) can0 09FD0200#FF8001F176FAFFFF
(1659169703.908713) can0 1DEFFF00#A00EE59805050202
(1659169703.909357) can0 1DEFFF00#A1FF74010579FAFF
(1659169703.910013) can0 1DEFFF00#A2FFFFFFFFFFFFFF
(1659169703.910693) can0 09FD0200#FF8201F276FCFFFF
(1659169703.911364) can0 09F11200#FFFFFFFF7FFFFFFD
(1659169703.945784) can0 0DF11923#FFFF7FFDFEBC07FF
(1659169703.951779) can0 15FD0823#FF0000E171FFFFFF
(1659169704.008072) can0 09FD0200#FF8001FC76FAFFFF
(1659169704.008785) can0 1DEFFF00#C00EE59805050202
(1659169704.009462) can0 1DEFFF00#C1FF74010579FAFF
(1659169704.010116) can0 1DEFFF00#C2FFFFFFFFFFFFFF
(1659169704.010767) can0 09FD0200#FF8201FD76FCFFFF
(1659169704.011453) can0 09F11200#FFFFFFFF7FFFFFFD
(1659169704.045850) can0 0DF11923#FFFF7FFDFEBC07FF
(1659169704.047857) can0 09F50323#FF0000FFFF00FFFF
(1659169704.051864) can0 15FD0823#FF0000E171FFFFFF
(1659169704.108054) can0 09FD0200#FF80010677FAFFFF
(1659169704.108777) can0 1DEFFF00#E00EE59805050202
(1659169704.109419) can0 1DEFFF00#E1FF74010579FAFF
(1659169704.110081) can0 1DEFFF00#E2FFFFFFFFFFFFFF
(1659169704.110746) can0 09FD0200#FF81010777FCFFFF
(1659169704.111446) can0 09F11200#FFFFFFFF7FFFFFFD
(1659169704.145860) can0 0DF11923#FFFF7FFDFEBC07FF
(1659169704.153038) can0 15FD0823#FF0000E171FFFFFF
(1659169704.192924) can0 09F50300#FF0000FFFF00FFFF
(1659169704.207924) can0 15FD0600#FFFFFFFFFFFFFFFF
(1659169704.208641) can0 15FD0700#FF40FFFFFF7FFFFF
(1659169704.209356) can0 09FD0200#FF80011777FAFFFF
(1659169704.210033) can0 1DEFFF00#000EE59805050202
(1659169704.210763) can0 1DEFFF00#01FF72014F7AFAFF
(1659169704.211458) can0 1DEFFF00#02FFFFFFFFFFFFFF
(1659169704.212040) can0 09FD0200#FF81011977FCFFFF
(1659169704.212701) can0 09F11200#FFFFFFFF7FFFFFFD
(1659169704.245838) can0 0DF11923#FFFF7FFDFEBD07FF
(1659169704.247889) can0 09F50323#FF0000FFFF00FFFF
(1659169704.252824) can0 15FD0823#FF0000E171FFFFFF
(1659169704.307998) can0 09FD0200#FF80012777FAFFFF
(1659169704.308730) can0 1DEFFF00#200EE59805050202
(1659169704.309380) can0 1DEFFF00#21FF72014F7AFAFF
(1659169704.310085) can0 1DEFFF00#22FFFFFFFFFFFFFF
(1659169704.310715) can0 09FD0200#FF81012A77FCFFFF
(1659169704.311370) can0 09F11200#FFFFFFFF7FFFFFFD
(1659169704.343786) can0 11F80E02#401B017F100E0DA8
(1659169704.344320) can0 11F80E02#4130E6044074CB21
(1659169704.344913) can0 11F80E02#425DC44000008F83
(1659169704.345473) can0 11F80E02#4309FE680000C7FF
(1659169704.346037) can0 0DF11923#FFFF7FFEFEBD07FF
(1659169704.348821) can0 0DF50B23#FF06010000900102
(1659169704.352784) can0 15FD0823#FF0000E171FFFFFF
(1659169704.408007) can0 09FD0200#FF80013877FAFFFF
(1659169704.408742) can0 1DEFFF00#400EE59805050202
(1659169704.409388) can0 1DEFFF00#41FF72014F7AFAFF
(1659169704.410063) can0 1DEFFF00#42FFFFFFFFFFFFFF
(1659169704.410709) can0 09FD0200#FF81013A77FCFFFF
(1659169704.411414) can0 09F11200#FFFFFFFF7FFFFFFD
(1659169704.445765) can0 0DF11923#FFFF7FFEFEBE07FF
(1659169704.447777) can0 09F50323#FF0000FFFF00FFFF
(1659169704.448330) can0 19FA0302#2CD24A007E00FF7F
(1659169704.448904) can0 09F80102#C0B4CC21E082E604
(1659169704.449503) can0 09F80202#2CFC00000000FFFF
(1659169704.450240) can0 0DF80502#40332C034B808A2E
(1659169704.450774) can0 0DF80502#411200801F82789D
(1659169704.451349) can0 0DF80502#42DE0700C0043EB2
(1659169704.451904) can0 0DF80502#43162401403B9602
(1659169704.452510) can0 0DF80502#440000000013FD0D
(1659169704.453022) can0 15FD0823#FF0000E171FFFFFF
(1659169704.453654) can0 0DF80502#454A009300FFFFFF
(1659169704.454223) can0 0DF80502#467FFFFFFFFFFFFF
(1659169704.454779) can0 0DF80502#47FFFFFFFFFFFFFF
(1659169704.503689) can0 11F80E02#601B018092980E88
(1659169704.504232) can0 11F80E02#61C0E604C02DCC21
(1659169704.504799) can0 11F80E02#62F39FC10000E208
(1659169704.505374) can0 11F80E02#6302FFFFA304C7FF
(1659169704.505945) can0 11F80F02#801A12F01A9D0CE0
(1659169704.506518) can0 11F80F02#8182E604C0B4CC21
(1659169704.507088) can0 11F80F02#82E8FFFF00000600
(1659169704.507662) can0 11F80F02#8326FFFFFF77FF00
(1659169704.508249) can0 09FD0200#FF80013977FAFFFF
(1659169704.508929) can0 1DEFFF00#600EE59805050202
(1659169704.509548) can0 1DEFFF00#61FF6D017A77FAFF
(1659169704.510263) can0 1DEFFF00#62FFFFFFFFFFFFFF
(1659169704.510913) can0 09FD0200#FF81013C77FCFFFF
(1659169704.511566) can0 09F11200#FFFFFFFF7FFFFFFD
(1659169704.525896) can0 09F50300#FF0000FFFF00FFFF
(1659169704.545798) can0 0DF11923#FFFF7FFEFEBF07FF
(1659169704.552765) can0 15FD0823#FF0000E171FFFFFF
(1659169704.556686) can0 11F80E02#801B01686F5A0F18
(1659169704.557241) can0 11F80E02#812AE60440E1CB21
(1659169704.557799) can0 11F80E02#8261443900007050
(1659169704.558368) can0 11F80E02#830868210000C8FF
(1659169704.608000) can0 09FD0200#FF7F013A77FAFFFF
(1659169704.608734) can0 1DEFFF00#800EE59805050202
(1659169704.609400) can0 1DEFFF00#81FF6D017A77FAFF
(1659169704.610062) can0 1DEFFF00#82FFFFFFFFFFFFFF
(1659169704.610702) can0 09FD0200#FF81013D77FCFFFF
(1659169704.611395) can0 09F11200#FFFFFFFF7FFFFFFD
(1659169704.645762) can0 0DF11923#FFFF7FFEFEBF07FF
(1659169704.647779) can0 09F50323#FF0000FFFF00FFFF
(1659169704.652763) can0 15FD0823#FF0000E171FFFFFF
(1659169704.662955) can0 1DEFFF00#A011E598E7080A0A
(1659169704.663590) can0 1DEFFF00#A10301030DDBA6D2
(1659169704.664244) can0 1DEFFF00#A2CA021100FFFFFF
(1659169704.707974) can0 0DF50B00#FFFFFFFFFF0000FF
(1659169704.708599) can0 15FD0600#FFFFFFFFFFFFFFFF
(1659169704.709268) can0 15FD0700#FF40FFFFFF7FFFFF
(1659169704.709989) can0 09FD0200#FF7F013B77FAFFFF
(1659169704.710658) can0 1DEFFF00#C00EE59805050202
(1659169704.711323) can0 1DEFFF00#C1FF6D017A77FAFF
(1659169704.711971) can0 1DEFFF00#C2FFFFFFFFFFFFFF
(1659169704.712638) can0 09FD0200#FF81013F77FCFFFF
(1659169704.713322) can0 09F11200#FFFFFFFF7FFFFFFD
(1659169704.745758) can0 0DF11923#FFFF7FFEFEBF07FF
(1659169704.752755) can0 15FD0823#FF0000E171FFFFFF
(1659169704.808010) can0 09FD0200#FF7F013C77FAFFFF
(1659169704.808735) can0 1DEFFF00#E00EE59805050202
(1659169704.809400) can0 1DEFFF00#E1FF63014F77FAFF
(1659169704.810017) can0 1DEFFF00#E2FFFFFFFFFFFFFF
(1659169704.810705) can0 09FD0200#FF80014077FCFFFF
(1659169704.811366) can0 09F11200#FFFFFFFF7FFFFFFD
(1659169704.845753) can0 0DF11923#FFFF7FFEFEBF07FF
(1659169704.847770) can0 09F50323#FF0000FFFF00FFFF
(1659169704.852749) can0 15FD0823#FF0000E171FFFFFF
(1659169704.858899) can0 09F50300#FF0000FFFF00FFFF
(1659169704.908009) can0 09FD0200#FF7F013C77FAFFFF
(1659169704.908732) can0 1DEFFF00#000EE59805050202
(1659169704.909409) can0 1DEFFF00#01FF63014F77FAFF
(1659169704.910077) can0 1DEFFF00#02FFFFFFFFFFFFFF
(1659169704.910739) can0 09FD0200#FF80014177FCFFFF
(1659169704.911407) can0 09F11200#FFFFFFFF7FFFFFFD
(1659169704.945751) can0 0DF11923#FFFF7FFEFEBF07FF
(1659169704.952751) can0 15FD0823#FF0000E171FFFFFF
(1659169705.008083) can0 09FD0200#FF7F013D77FAFFFF
(1659169705.008788) can0 1DEFFF00#200EE59805050202
(1659169705.009436) can0 1DEFFF00#21FF63014F77FAFF
(1659169705.010117) can0 1DEFFF00#22FFFFFFFFFFFFFF
(1659169705.010752) can0 09FD0200#FF80014277FCFFFF
(1659169705.011452) can0 09F11200#FFFFFFFF7FFFFFFD
(1659169705.045816) can0 0DF11923#FFFF7FFEFEBF07FF
(1659169705.047809) can0 09F50323#FF0000FFFF00FFFF
(1659169705.052829) can0 15FD0823#FF0000E171FFFFFF
(1659169705.108084) can0 09FD0200#FF7E013D77FAFFFF
(1659169705.108801) can0 1DEFFF00#400EE59805050202
(1659169705.109461) can0 1DEFFF00#41FF63014F77FAFF
(1659169705.110160) can0 1DEFFF00#42FFFFFFFFFFFFFF
(1659169705.110795) can0 09FD0200#FF80014277FCFFFF
(1659169705.111464) can0 09F11200#FFFFFFFF7FFFFFFD
(1659169705.145829) can0 0DF11923#FFFF7FFEFEBF07FF
(1659169705.152808) can0 15FD0823#FF0000E171FFFFFF
(1659169705.191969) can0 09F50300#FF0000FFFF00FFFF
(1659169705.207970) can0 15FD0600#FFFFFFFFFFFFFFFF
(1659169705.208689) can0 15FD0700#FF40FFFFFF7FFFFF
(1659169705.209417) can0 09FD0200#FF7E013D77FAFFFF
(1659169705.210111) can0 1DEFFF00#600EE59805050202
(1659169705.210687) can0 1DEFFF00#61FF61013D77FAFF
(1659169705.211376) can0 1DEFFF00#62FFFFFFFFFFFFFF
(1659169705.212066) can0 09FD0200#FF7F014377FCFFFF
(1659169705.212717) can0 09F11200#FFFFFFFF7FFFFFFD
(1659169705.245798) can0 0DF11923#FFFF7FFEFEBF07FF
(1659169705.247804) can0 09F50323#FF0000FFFF00FFFF
(1659169705.252801) can0 15FD0823#FF0000E171FFFFFF
(1659169705.308035) can0 09FD0200#FF7E013D77FAFFFF
(1659169705.308768) can0 1DEFFF00#800EE59805050202
(1659169705.309424) can0 1DEFFF00#81FF61013D77FAFF
(1659169705.310088) can0 1DEFFF00#82FFFFFFFFFFFFFF
(1659169705.310789) can0 09FD0200#FF7F014377FCFFFF
(1659169705.311423) can0 09F11200#FFFFFFFF7FFFFFFD
(1659169705.345757) can0 0DF11923#FFFF7FFDFEBF07FF
(1659169705.348745) can0 0DF50B23#FF06010000900102
(1659169705.352747) can0 15FD0823#FF0000E171FFFFFF
(1659169705.408079) can0 09FD0200#FF7E013D77FAFFFF
(1659169705.408791) can0 1DEFFF00#A00EE59805050202
(1659169705.409438) can0 1DEFFF00#A1FF61013D77FAFF
